Title: * cat_run
Date: Wed Sep  3 08:47:11  2025
Command: ngspice-44.2, Build
Plotname: AC Analysis
Flags: complex
No. Variables: 3
No. Points: 51
Variables:
	0	frequency	frequency grid=3
	1	v(n1)	voltage
	2	i(v1)	current
Values:
 0	1.000000000000000e+01,0.000000000000000e+00
	1.000000000000000e+00,0.000000000000000e+00
	-1.000000000000000e-03,0.000000000000000e+00

 1	1.258925411794167e+01,0.000000000000000e+00
	1.000000000000000e+00,0.000000000000000e+00
	-1.000000000000000e-03,0.000000000000000e+00

 2	1.584893192461114e+01,0.000000000000000e+00
	1.000000000000000e+00,0.000000000000000e+00
	-1.000000000000000e-03,0.000000000000000e+00

 3	1.995262314968880e+01,0.000000000000000e+00
	1.000000000000000e+00,0.000000000000000e+00
	-1.000000000000000e-03,0.000000000000000e+00

 4	2.511886431509581e+01,0.000000000000000e+00
	1.000000000000000e+00,0.000000000000000e+00
	-1.000000000000000e-03,0.000000000000000e+00

 5	3.162277660168380e+01,0.000000000000000e+00
	1.000000000000000e+00,0.000000000000000e+00
	-1.000000000000000e-03,0.000000000000000e+00

 6	3.981071705534973e+01,0.000000000000000e+00
	1.000000000000000e+00,0.000000000000000e+00
	-1.000000000000000e-03,0.000000000000000e+00

 7	5.011872336272724e+01,0.000000000000000e+00
	1.000000000000000e+00,0.000000000000000e+00
	-1.000000000000000e-03,0.000000000000000e+00

 8	6.309573444801935e+01,0.000000000000000e+00
	1.000000000000000e+00,0.000000000000000e+00
	-1.000000000000000e-03,0.000000000000000e+00

 9	7.943282347242818e+01,0.000000000000000e+00
	1.000000000000000e+00,0.000000000000000e+00
	-1.000000000000000e-03,0.000000000000000e+00

 10	1.000000000000000e+02,0.000000000000000e+00
	1.000000000000000e+00,0.000000000000000e+00
	-1.000000000000000e-03,0.000000000000000e+00

 11	1.258925411794168e+02,0.000000000000000e+00
	1.000000000000000e+00,0.000000000000000e+00
	-1.000000000000000e-03,0.000000000000000e+00

 12	1.584893192461114e+02,0.000000000000000e+00
	1.000000000000000e+00,0.000000000000000e+00
	-1.000000000000000e-03,0.000000000000000e+00

 13	1.995262314968881e+02,0.000000000000000e+00
	1.000000000000000e+00,0.000000000000000e+00
	-1.000000000000000e-03,0.000000000000000e+00

 14	2.511886431509582e+02,0.000000000000000e+00
	1.000000000000000e+00,0.000000000000000e+00
	-1.000000000000000e-03,0.000000000000000e+00

 15	3.162277660168381e+02,0.000000000000000e+00
	1.000000000000000e+00,0.000000000000000e+00
	-1.000000000000000e-03,0.000000000000000e+00

 16	3.981071705534975e+02,0.000000000000000e+00
	1.000000000000000e+00,0.000000000000000e+00
	-1.000000000000000e-03,0.000000000000000e+00

 17	5.011872336272726e+02,0.000000000000000e+00
	1.000000000000000e+00,0.000000000000000e+00
	-1.000000000000000e-03,0.000000000000000e+00

 18	6.309573444801937e+02,0.000000000000000e+00
	1.000000000000000e+00,0.000000000000000e+00
	-1.000000000000000e-03,0.000000000000000e+00

 19	7.943282347242821e+02,0.000000000000000e+00
	1.000000000000000e+00,0.000000000000000e+00
	-1.000000000000000e-03,0.000000000000000e+00

 20	1.000000000000001e+03,0.000000000000000e+00
	1.000000000000000e+00,0.000000000000000e+00
	-1.000000000000000e-03,0.000000000000000e+00

 21	1.258925411794168e+03,0.000000000000000e+00
	1.000000000000000e+00,0.000000000000000e+00
	-1.000000000000000e-03,0.000000000000000e+00

 22	1.584893192461115e+03,0.000000000000000e+00
	1.000000000000000e+00,0.000000000000000e+00
	-1.000000000000000e-03,0.000000000000000e+00

 23	1.995262314968882e+03,0.000000000000000e+00
	1.000000000000000e+00,0.000000000000000e+00
	-1.000000000000000e-03,0.000000000000000e+00

 24	2.511886431509583e+03,0.000000000000000e+00
	1.000000000000000e+00,0.000000000000000e+00
	-1.000000000000000e-03,0.000000000000000e+00

 25	3.162277660168383e+03,0.000000000000000e+00
	1.000000000000000e+00,0.000000000000000e+00
	-1.000000000000000e-03,0.000000000000000e+00

 26	3.981071705534977e+03,0.000000000000000e+00
	1.000000000000000e+00,0.000000000000000e+00
	-1.000000000000000e-03,0.000000000000000e+00

 27	5.011872336272730e+03,0.000000000000000e+00
	1.000000000000000e+00,0.000000000000000e+00
	-1.000000000000000e-03,0.000000000000000e+00

 28	6.309573444801941e+03,0.000000000000000e+00
	1.000000000000000e+00,0.000000000000000e+00
	-1.000000000000000e-03,0.000000000000000e+00

 29	7.943282347242826e+03,0.000000000000000e+00
	1.000000000000000e+00,0.000000000000000e+00
	-1.000000000000000e-03,0.000000000000000e+00

 30	1.000000000000001e+04,0.000000000000000e+00
	1.000000000000000e+00,0.000000000000000e+00
	-1.000000000000000e-03,0.000000000000000e+00

 31	1.258925411794169e+04,0.000000000000000e+00
	1.000000000000000e+00,0.000000000000000e+00
	-1.000000000000000e-03,0.000000000000000e+00

 32	1.584893192461116e+04,0.000000000000000e+00
	1.000000000000000e+00,0.000000000000000e+00
	-1.000000000000000e-03,0.000000000000000e+00

 33	1.995262314968883e+04,0.000000000000000e+00
	1.000000000000000e+00,0.000000000000000e+00
	-1.000000000000000e-03,0.000000000000000e+00

 34	2.511886431509585e+04,0.000000000000000e+00
	1.000000000000000e+00,0.000000000000000e+00
	-1.000000000000000e-03,0.000000000000000e+00

 35	3.162277660168385e+04,0.000000000000000e+00
	1.000000000000000e+00,0.000000000000000e+00
	-1.000000000000000e-03,0.000000000000000e+00

 36	3.981071705534980e+04,0.000000000000000e+00
	1.000000000000000e+00,0.000000000000000e+00
	-1.000000000000000e-03,0.000000000000000e+00

 37	5.011872336272732e+04,0.000000000000000e+00
	1.000000000000000e+00,0.000000000000000e+00
	-1.000000000000000e-03,0.000000000000000e+00

 38	6.309573444801945e+04,0.000000000000000e+00
	1.000000000000000e+00,0.000000000000000e+00
	-1.000000000000000e-03,0.000000000000000e+00

 39	7.943282347242831e+04,0.000000000000000e+00
	1.000000000000000e+00,0.000000000000000e+00
	-1.000000000000000e-03,0.000000000000000e+00

 40	1.000000000000002e+05,0.000000000000000e+00
	1.000000000000000e+00,0.000000000000000e+00
	-1.000000000000000e-03,0.000000000000000e+00

 41	1.258925411794170e+05,0.000000000000000e+00
	1.000000000000000e+00,0.000000000000000e+00
	-1.000000000000000e-03,0.000000000000000e+00

 42	1.584893192461117e+05,0.000000000000000e+00
	1.000000000000000e+00,0.000000000000000e+00
	-1.000000000000000e-03,0.000000000000000e+00

 43	1.995262314968884e+05,0.000000000000000e+00
	1.000000000000000e+00,0.000000000000000e+00
	-1.000000000000000e-03,0.000000000000000e+00

 44	2.511886431509586e+05,0.000000000000000e+00
	1.000000000000000e+00,0.000000000000000e+00
	-1.000000000000000e-03,0.000000000000000e+00

 45	3.162277660168386e+05,0.000000000000000e+00
	1.000000000000000e+00,0.000000000000000e+00
	-1.000000000000000e-03,0.000000000000000e+00

 46	3.981071705534981e+05,0.000000000000000e+00
	1.000000000000000e+00,0.000000000000000e+00
	-1.000000000000000e-03,0.000000000000000e+00

 47	5.011872336272734e+05,0.000000000000000e+00
	1.000000000000000e+00,0.000000000000000e+00
	-1.000000000000000e-03,0.000000000000000e+00

 48	6.309573444801947e+05,0.000000000000000e+00
	1.000000000000000e+00,0.000000000000000e+00
	-1.000000000000000e-03,0.000000000000000e+00

 49	7.943282347242835e+05,0.000000000000000e+00
	1.000000000000000e+00,0.000000000000000e+00
	-1.000000000000000e-03,0.000000000000000e+00

 50	1.000000000000003e+06,0.000000000000000e+00
	1.000000000000000e+00,0.000000000000000e+00
	-1.000000000000000e-03,0.000000000000000e+00
